! AWR Design Environment (17603) Wed Feb 28 12:28:39 2024
! Document = 'Ideal Resonator'
! nPorts: 2, nXvals: 8751

# GHz S DB R 50
!Freq DBS11 AngS11 DBS21 AngS21 DBS12 AngS12 DBS22 AngS22 
1 -0.14836825 -24.81114 -15.148329 65.616895 -15.148329 65.616895 -0.14836825 -24.81114 
1.0008 -0.14853652 -24.832914 -15.144541 65.596748 -15.144541 65.596748 -0.14853652 -24.832914 
1.0016 -0.14870473 -24.854696 -15.140763 65.5766 -15.140763 65.5766 -0.14870473 -24.854696 
1.0024 -0.14887287 -24.876484 -15.136996 65.55645 -15.136996 65.55645 -0.14887287 -24.876484 
1.0032 -0.14904095 -24.898279 -15.13324 65.536298 -15.13324 65.536298 -0.14904095 -24.898279 
1.004 -0.14920897 -24.920082 -15.129495 65.516145 -15.129495 65.516145 -0.14920897 -24.920082 
1.0048 -0.14937693 -24.941891 -15.125761 65.495991 -15.125761 65.495991 -0.14937693 -24.941891 
1.0056 -0.14954483 -24.963708 -15.122037 65.475835 -15.122037 65.475835 -0.14954483 -24.963708 
1.0064 -0.14971266 -24.985532 -15.118325 65.455677 -15.118325 65.455677 -0.14971266 -24.985532 
1.0072 -0.14988043 -25.007363 -15.114624 65.435519 -15.114624 65.435519 -0.14988043 -25.007363 
1.008 -0.15004814 -25.029202 -15.110933 65.415358 -15.110933 65.415358 -0.15004814 -25.029202 
1.0088 -0.15021578 -25.051047 -15.107254 65.395196 -15.107254 65.395196 -0.15021578 -25.051047 
1.0096 -0.15038336 -25.0729 -15.103585 65.375033 -15.103585 65.375033 -0.15038336 -25.0729 
1.0104 -0.15055087 -25.09476 -15.099928 65.354868 -15.099928 65.354868 -0.15055087 -25.09476 
1.0112 -0.15071832 -25.116627 -15.096281 65.334702 -15.096281 65.334702 -0.15071832 -25.116627 
1.012 -0.15088571 -25.138502 -15.092646 65.314535 -15.092646 65.314535 -0.15088571 -25.138502 
1.0128 -0.15105303 -25.160384 -15.089021 65.294366 -15.089021 65.294366 -0.15105303 -25.160384 
1.0136 -0.15122028 -25.182273 -15.085407 65.274195 -15.085407 65.274195 -0.15122028 -25.182273 
1.0144 -0.15138747 -25.204169 -15.081805 65.254023 -15.081805 65.254023 -0.15138747 -25.204169 
1.0152 -0.15155459 -25.226073 -15.078213 65.23385 -15.078213 65.23385 -0.15155459 -25.226073 
1.016 -0.15172165 -25.247985 -15.074632 65.213675 -15.074632 65.213675 -0.15172165 -25.247985 
1.0168 -0.15188864 -25.269903 -15.071062 65.193499 -15.071062 65.193499 -0.15188864 -25.269903 
1.0176 -0.15205556 -25.291829 -15.067504 65.173321 -15.067504 65.173321 -0.15205556 -25.291829 
1.0184 -0.15222242 -25.313763 -15.063956 65.153142 -15.063956 65.153142 -0.15222242 -25.313763 
1.0192 -0.1523892 -25.335704 -15.060419 65.132962 -15.060419 65.132962 -0.1523892 -25.335704 
1.02 -0.15255592 -25.357653 -15.056893 65.11278 -15.056893 65.11278 -0.15255592 -25.357653 
1.0208 -0.15272257 -25.379609 -15.053379 65.092597 -15.053379 65.092597 -0.15272257 -25.379609 
1.0216 -0.15288916 -25.401572 -15.049875 65.072412 -15.049875 65.072412 -0.15288916 -25.401572 
1.0224 -0.15305567 -25.423543 -15.046382 65.052226 -15.046382 65.052226 -0.15305567 -25.423543 
1.0232 -0.15322212 -25.445522 -15.042901 65.032038 -15.042901 65.032038 -0.15322212 -25.445522 
1.024 -0.15338849 -25.467508 -15.03943 65.01185 -15.03943 65.01185 -0.15338849 -25.467508 
1.0248 -0.1535548 -25.489502 -15.03597 64.991659 -15.03597 64.991659 -0.1535548 -25.489502 
1.0256 -0.15372103 -25.511503 -15.032522 64.971468 -15.032522 64.971468 -0.15372103 -25.511503 
1.0264 -0.1538872 -25.533512 -15.029084 64.951275 -15.029084 64.951275 -0.1538872 -25.533512 
1.0272 -0.15405329 -25.555529 -15.025658 64.93108 -15.025658 64.93108 -0.15405329 -25.555529 
1.028 -0.15421932 -25.577553 -15.022242 64.910885 -15.022242 64.910885 -0.15421932 -25.577553 
1.0288 -0.15438527 -25.599585 -15.018838 64.890688 -15.018838 64.890688 -0.15438527 -25.599585 
1.0296 -0.15455115 -25.621625 -15.015444 64.870489 -15.015444 64.870489 -0.15455115 -25.621625 
1.0304 -0.15471696 -25.643673 -15.012062 64.85029 -15.012062 64.85029 -0.15471696 -25.643673 
1.0312 -0.1548827 -25.665728 -15.008691 64.830089 -15.008691 64.830089 -0.1548827 -25.665728 
1.032 -0.15504837 -25.687791 -15.005331 64.809886 -15.005331 64.809886 -0.15504837 -25.687791 
1.0328 -0.15521396 -25.709862 -15.001982 64.789682 -15.001982 64.789682 -0.15521396 -25.709862 
1.0336 -0.15537948 -25.731941 -14.998644 64.769477 -14.998644 64.769477 -0.15537948 -25.731941 
1.0344 -0.15554493 -25.754027 -14.995317 64.749271 -14.995317 64.749271 -0.15554493 -25.754027 
1.0352 -0.15571031 -25.776121 -14.992001 64.729063 -14.992001 64.729063 -0.15571031 -25.776121 
1.036 -0.15587561 -25.798224 -14.988696 64.708854 -14.988696 64.708854 -0.15587561 -25.798224 
1.0368 -0.15604083 -25.820334 -14.985403 64.688644 -14.985403 64.688644 -0.15604083 -25.820334 
1.0376 -0.15620599 -25.842452 -14.98212 64.668432 -14.98212 64.668432 -0.15620599 -25.842452 
1.0384 -0.15637107 -25.864578 -14.978849 64.64822 -14.978849 64.64822 -0.15637107 -25.864578 
1.0392 -0.15653607 -25.886711 -14.975589 64.628005 -14.975589 64.628005 -0.15653607 -25.886711 
1.04 -0.156701 -25.908853 -14.97234 64.60779 -14.97234 64.60779 -0.156701 -25.908853 
1.0408 -0.15686586 -25.931003 -14.969102 64.587573 -14.969102 64.587573 -0.15686586 -25.931003 
1.0416 -0.15703063 -25.953161 -14.965875 64.567355 -14.965875 64.567355 -0.15703063 -25.953161 
1.0424 -0.15719534 -25.975327 -14.96266 64.547136 -14.96266 64.547136 -0.15719534 -25.975327 
1.0432 -0.15735997 -25.997501 -14.959455 64.526916 -14.959455 64.526916 -0.15735997 -25.997501 
1.044 -0.15752452 -26.019683 -14.956262 64.506694 -14.956262 64.506694 -0.15752452 -26.019683 
1.0448 -0.15768899 -26.041873 -14.95308 64.486471 -14.95308 64.486471 -0.15768899 -26.041873 
1.0456 -0.15785339 -26.064071 -14.949909 64.466247 -14.949909 64.466247 -0.15785339 -26.064071 
1.0464 -0.15801771 -26.086278 -14.946749 64.446021 -14.946749 64.446021 -0.15801771 -26.086278 
1.0472 -0.15818196 -26.108492 -14.9436 64.425795 -14.9436 64.425795 -0.15818196 -26.108492 
1.048 -0.15834612 -26.130715 -14.940463 64.405567 -14.940463 64.405567 -0.15834612 -26.130715 
1.0488 -0.15851021 -26.152946 -14.937337 64.385338 -14.937337 64.385338 -0.15851021 -26.152946 
1.0496 -0.15867422 -26.175185 -14.934222 64.365107 -14.934222 64.365107 -0.15867422 -26.175185 
1.0504 -0.15883816 -26.197432 -14.931118 64.344876 -14.931118 64.344876 -0.15883816 -26.197432 
1.0512 -0.15900201 -26.219688 -14.928026 64.324643 -14.928026 64.324643 -0.15900201 -26.219688 
1.052 -0.15916579 -26.241952 -14.924944 64.304409 -14.924944 64.304409 -0.15916579 -26.241952 
1.0528 -0.15932948 -26.264224 -14.921874 64.284174 -14.921874 64.284174 -0.15932948 -26.264224 
1.0536 -0.1594931 -26.286505 -14.918816 64.263938 -14.918816 64.263938 -0.1594931 -26.286505 
1.0544 -0.15965664 -26.308794 -14.915768 64.243701 -14.915768 64.243701 -0.15965664 -26.308794 
1.0552 -0.1598201 -26.331091 -14.912732 64.223462 -14.912732 64.223462 -0.1598201 -26.331091 
1.056 -0.15998348 -26.353396 -14.909707 64.203223 -14.909707 64.203223 -0.15998348 -26.353396 
1.0568 -0.16014678 -26.375711 -14.906693 64.182982 -14.906693 64.182982 -0.16014678 -26.375711 
1.0576 -0.16031 -26.398033 -14.903691 64.16274 -14.903691 64.16274 -0.16031 -26.398033 
1.0584 -0.16047313 -26.420364 -14.900699 64.142497 -14.900699 64.142497 -0.16047313 -26.420364 
1.0592 -0.16063619 -26.442703 -14.89772 64.122253 -14.89772 64.122253 -0.16063619 -26.442703 
1.06 -0.16079917 -26.465051 -14.894751 64.102007 -14.894751 64.102007 -0.16079917 -26.465051 
1.0608 -0.16096206 -26.487408 -14.891794 64.081761 -14.891794 64.081761 -0.16096206 -26.487408 
1.0616 -0.16112488 -26.509773 -14.888848 64.061513 -14.888848 64.061513 -0.16112488 -26.509773 
1.0624 -0.16128761 -26.532147 -14.885913 64.041265 -14.885913 64.041265 -0.16128761 -26.532147 
1.0632 -0.16145026 -26.554529 -14.88299 64.021015 -14.88299 64.021015 -0.16145026 -26.554529 
1.064 -0.16161283 -26.576919 -14.880078 64.000765 -14.880078 64.000765 -0.16161283 -26.576919 
1.0648 -0.16177532 -26.599319 -14.877177 63.980513 -14.877177 63.980513 -0.16177532 -26.599319 
1.0656 -0.16193772 -26.621727 -14.874288 63.96026 -14.874288 63.96026 -0.16193772 -26.621727 
1.0664 -0.16210004 -26.644144 -14.87141 63.940006 -14.87141 63.940006 -0.16210004 -26.644144 
1.0672 -0.16226228 -26.666569 -14.868544 63.919751 -14.868544 63.919751 -0.16226228 -26.666569 
1.068 -0.16242443 -26.689003 -14.865689 63.899495 -14.865689 63.899495 -0.16242443 -26.689003 
1.0688 -0.16258651 -26.711446 -14.862845 63.879238 -14.862845 63.879238 -0.16258651 -26.711446 
1.0696 -0.16274849 -26.733898 -14.860013 63.85898 -14.860013 63.85898 -0.16274849 -26.733898 
1.0704 -0.1629104 -26.756358 -14.857192 63.838721 -14.857192 63.838721 -0.1629104 -26.756358 
1.0712 -0.16307222 -26.778828 -14.854383 63.818461 -14.854383 63.818461 -0.16307222 -26.778828 
1.072 -0.16323395 -26.801306 -14.851585 63.798201 -14.851585 63.798201 -0.16323395 -26.801306 
1.0728 -0.16339561 -26.823793 -14.848798 63.777939 -14.848798 63.777939 -0.16339561 -26.823793 
1.0736 -0.16355717 -26.846288 -14.846023 63.757676 -14.846023 63.757676 -0.16355717 -26.846288 
1.0744 -0.16371866 -26.868793 -14.843259 63.737412 -14.843259 63.737412 -0.16371866 -26.868793 
1.0752 -0.16388005 -26.891307 -14.840507 63.717147 -14.840507 63.717147 -0.16388005 -26.891307 
1.076 -0.16404137 -26.913829 -14.837766 63.696881 -14.837766 63.696881 -0.16404137 -26.913829 
1.0768 -0.16420259 -26.936361 -14.835037 63.676615 -14.835037 63.676615 -0.16420259 -26.936361 
1.0776 -0.16436374 -26.958902 -14.832319 63.656347 -14.832319 63.656347 -0.16436374 -26.958902 
1.0784 -0.16452479 -26.981451 -14.829613 63.636079 -14.829613 63.636079 -0.16452479 -26.981451 
1.0792 -0.16468576 -27.00401 -14.826918 63.615809 -14.826918 63.615809 -0.16468576 -27.00401 
1.08 -0.16484665 -27.026578 -14.824235 63.595539 -14.824235 63.595539 -0.16484665 -27.026578 
1.0808 -0.16500744 -27.049154 -14.821564 63.575268 -14.821564 63.575268 -0.16500744 -27.049154 
1.0816 -0.16516816 -27.07174 -14.818903 63.554996 -14.818903 63.554996 -0.16516816 -27.07174 
1.0824 -0.16532878 -27.094335 -14.816255 63.534723 -14.816255 63.534723 -0.16532878 -27.094335 
1.0832 -0.16548932 -27.116939 -14.813618 63.514449 -14.813618 63.514449 -0.16548932 -27.116939 
1.084 -0.16564977 -27.139553 -14.810992 63.494175 -14.810992 63.494175 -0.16564977 -27.139553 
1.0848 -0.16581014 -27.162175 -14.808379 63.473899 -14.808379 63.473899 -0.16581014 -27.162175 
1.0856 -0.16597041 -27.184807 -14.805776 63.453623 -14.805776 63.453623 -0.16597041 -27.184807 
1.0864 -0.1661306 -27.207448 -14.803186 63.433346 -14.803186 63.433346 -0.1661306 -27.207448 
1.0872 -0.1662907 -27.230099 -14.800607 63.413068 -14.800607 63.413068 -0.1662907 -27.230099 
1.088 -0.16645072 -27.252758 -14.798039 63.39279 -14.798039 63.39279 -0.16645072 -27.252758 
1.0888 -0.16661065 -27.275427 -14.795483 63.37251 -14.795483 63.37251 -0.16661065 -27.275427 
1.0896 -0.16677048 -27.298106 -14.792939 63.35223 -14.792939 63.35223 -0.16677048 -27.298106 
1.0904 -0.16693023 -27.320793 -14.790407 63.331949 -14.790407 63.331949 -0.16693023 -27.320793 
1.0912 -0.1670899 -27.34349 -14.787886 63.311668 -14.787886 63.311668 -0.1670899 -27.34349 
1.092 -0.16724947 -27.366197 -14.785377 63.291385 -14.785377 63.291385 -0.16724947 -27.366197 
1.0928 -0.16740896 -27.388913 -14.782879 63.271102 -14.782879 63.271102 -0.16740896 -27.388913 
1.0936 -0.16756835 -27.411638 -14.780393 63.250819 -14.780393 63.250819 -0.16756835 -27.411638 
1.0944 -0.16772766 -27.434373 -14.777919 63.230534 -14.777919 63.230534 -0.16772766 -27.434373 
1.0952 -0.16788688 -27.457118 -14.775457 63.210249 -14.775457 63.210249 -0.16788688 -27.457118 
1.096 -0.16804601 -27.479871 -14.773006 63.189963 -14.773006 63.189963 -0.16804601 -27.479871 
1.0968 -0.16820504 -27.502635 -14.770568 63.169677 -14.770568 63.169677 -0.16820504 -27.502635 
1.0976 -0.16836399 -27.525408 -14.76814 63.149389 -14.76814 63.149389 -0.16836399 -27.525408 
1.0984 -0.16852285 -27.548191 -14.765725 63.129102 -14.765725 63.129102 -0.16852285 -27.548191 
1.0992 -0.16868163 -27.570983 -14.763322 63.108813 -14.763322 63.108813 -0.16868163 -27.570983 
1.1 -0.16884031 -27.593785 -14.76093 63.088524 -14.76093 63.088524 -0.16884031 -27.593785 
1.1008 -0.1689989 -27.616597 -14.75855 63.068235 -14.75855 63.068235 -0.1689989 -27.616597 
1.1016 -0.1691574 -27.639419 -14.756182 63.047944 -14.756182 63.047944 -0.1691574 -27.639419 
1.1024 -0.16931581 -27.66225 -14.753825 63.027654 -14.753825 63.027654 -0.16931581 -27.66225 
1.1032 -0.16947413 -27.685091 -14.751481 63.007362 -14.751481 63.007362 -0.16947413 -27.685091 
1.104 -0.16963236 -27.707942 -14.749148 62.98707 -14.749148 62.98707 -0.16963236 -27.707942 
1.1048 -0.1697905 -27.730802 -14.746827 62.966778 -14.746827 62.966778 -0.1697905 -27.730802 
1.1056 -0.16994855 -27.753673 -14.744518 62.946485 -14.744518 62.946485 -0.16994855 -27.753673 
1.1064 -0.1701065 -27.776553 -14.742221 62.926192 -14.742221 62.926192 -0.1701065 -27.776553 
1.1072 -0.17026437 -27.799443 -14.739936 62.905898 -14.739936 62.905898 -0.17026437 -27.799443 
1.108 -0.17042215 -27.822343 -14.737663 62.885603 -14.737663 62.885603 -0.17042215 -27.822343 
1.1088 -0.17057983 -27.845254 -14.735401 62.865308 -14.735401 62.865308 -0.17057983 -27.845254 
1.1096 -0.17073742 -27.868174 -14.733152 62.845013 -14.733152 62.845013 -0.17073742 -27.868174 
1.1104 -0.17089492 -27.891104 -14.730914 62.824717 -14.730914 62.824717 -0.17089492 -27.891104 
1.1112 -0.17105234 -27.914044 -14.728689 62.804421 -14.728689 62.804421 -0.17105234 -27.914044 
1.112 -0.17120965 -27.936994 -14.726475 62.784124 -14.726475 62.784124 -0.17120965 -27.936994 
1.1128 -0.17136688 -27.959954 -14.724274 62.763827 -14.724274 62.763827 -0.17136688 -27.959954 
1.1136 -0.17152402 -27.982924 -14.722084 62.74353 -14.722084 62.74353 -0.17152402 -27.982924 
1.1144 -0.17168106 -28.005905 -14.719907 62.723232 -14.719907 62.723232 -0.17168106 -28.005905 
1.1152 -0.17183801 -28.028895 -14.717741 62.702934 -14.717741 62.702934 -0.17183801 -28.028895 
1.116 -0.17199488 -28.051896 -14.715588 62.682636 -14.715588 62.682636 -0.17199488 -28.051896 
1.1168 -0.17215164 -28.074907 -14.713446 62.662337 -14.713446 62.662337 -0.17215164 -28.074907 
1.1176 -0.17230832 -28.097929 -14.711317 62.642038 -14.711317 62.642038 -0.17230832 -28.097929 
1.1184 -0.1724649 -28.12096 -14.7092 62.621739 -14.7092 62.621739 -0.1724649 -28.12096 
1.1192 -0.1726214 -28.144002 -14.707094 62.601439 -14.707094 62.601439 -0.1726214 -28.144002 
1.12 -0.1727778 -28.167054 -14.705001 62.581139 -14.705001 62.581139 -0.1727778 -28.167054 
1.1208 -0.1729341 -28.190116 -14.70292 62.560839 -14.70292 62.560839 -0.1729341 -28.190116 
1.1216 -0.17309032 -28.213189 -14.700852 62.540539 -14.700852 62.540539 -0.17309032 -28.213189 
1.1224 -0.17324644 -28.236272 -14.698795 62.520238 -14.698795 62.520238 -0.17324644 -28.236272 
1.1232 -0.17340247 -28.259366 -14.69675 62.499937 -14.69675 62.499937 -0.17340247 -28.259366 
1.124 -0.17355841 -28.28247 -14.694718 62.479636 -14.694718 62.479636 -0.17355841 -28.28247 
1.1248 -0.17371426 -28.305585 -14.692698 62.459335 -14.692698 62.459335 -0.17371426 -28.305585 
1.1256 -0.17387001 -28.32871 -14.69069 62.439034 -14.69069 62.439034 -0.17387001 -28.32871 
1.1264 -0.17402567 -28.351845 -14.688694 62.418732 -14.688694 62.418732 -0.17402567 -28.351845 
1.1272 -0.17418124 -28.374992 -14.68671 62.398431 -14.68671 62.398431 -0.17418124 -28.374992 
1.128 -0.17433671 -28.398148 -14.684739 62.378129 -14.684739 62.378129 -0.17433671 -28.398148 
1.1288 -0.17449209 -28.421316 -14.68278 62.357828 -14.68278 62.357828 -0.17449209 -28.421316 
1.1296 -0.17464738 -28.444494 -14.680833 62.337526 -14.680833 62.337526 -0.17464738 -28.444494 
1.1304 -0.17480258 -28.467682 -14.678899 62.317224 -14.678899 62.317224 -0.17480258 -28.467682 
1.1312 -0.17495768 -28.490882 -14.676977 62.296922 -14.676977 62.296922 -0.17495768 -28.490882 
1.132 -0.17511269 -28.514092 -14.675067 62.27662 -14.675067 62.27662 -0.17511269 -28.514092 
1.1328 -0.17526761 -28.537313 -14.67317 62.256319 -14.67317 62.256319 -0.17526761 -28.537313 
1.1336 -0.17542244 -28.560544 -14.671284 62.236017 -14.671284 62.236017 -0.17542244 -28.560544 
1.1344 -0.17557717 -28.583787 -14.669412 62.215715 -14.669412 62.215715 -0.17557717 -28.583787 
1.1352 -0.17573181 -28.60704 -14.667551 62.195413 -14.667551 62.195413 -0.17573181 -28.60704 
1.136 -0.17588635 -28.630304 -14.665703 62.175112 -14.665703 62.175112 -0.17588635 -28.630304 
1.1368 -0.17604081 -28.653579 -14.663868 62.15481 -14.663868 62.15481 -0.17604081 -28.653579 
1.1376 -0.17619517 -28.676865 -14.662045 62.134509 -14.662045 62.134509 -0.17619517 -28.676865 
1.1384 -0.17634944 -28.700162 -14.660234 62.114208 -14.660234 62.114208 -0.17634944 -28.700162 
1.1392 -0.17650361 -28.72347 -14.658436 62.093907 -14.658436 62.093907 -0.17650361 -28.72347 
1.14 -0.17665769 -28.746789 -14.65665 62.073606 -14.65665 62.073606 -0.17665769 -28.746789 
1.1408 -0.17681168 -28.770119 -14.654877 62.053305 -14.654877 62.053305 -0.17681168 -28.770119 
1.1416 -0.17696558 -28.79346 -14.653116 62.033004 -14.653116 62.033004 -0.17696558 -28.79346 
1.1424 -0.17711938 -28.816812 -14.651368 62.012704 -14.651368 62.012704 -0.17711938 -28.816812 
1.1432 -0.17727309 -28.840176 -14.649632 61.992404 -14.649632 61.992404 -0.17727309 -28.840176 
1.144 -0.17742671 -28.86355 -14.647909 61.972104 -14.647909 61.972104 -0.17742671 -28.86355 
1.1448 -0.17758023 -28.886936 -14.646198 61.951805 -14.646198 61.951805 -0.17758023 -28.886936 
1.1456 -0.17773367 -28.910332 -14.6445 61.931506 -14.6445 61.931506 -0.17773367 -28.910332 
1.1464 -0.17788701 -28.93374 -14.642815 61.911207 -14.642815 61.911207 -0.17788701 -28.93374 
1.1472 -0.17804025 -28.95716 -14.641142 61.890909 -14.641142 61.890909 -0.17804025 -28.95716 
1.148 -0.17819341 -28.98059 -14.639482 61.870611 -14.639482 61.870611 -0.17819341 -28.98059 
1.1488 -0.17834647 -29.004032 -14.637835 61.850313 -14.637835 61.850313 -0.17834647 -29.004032 
1.1496 -0.17849944 -29.027486 -14.6362 61.830016 -14.6362 61.830016 -0.17849944 -29.027486 
1.1504 -0.17865232 -29.05095 -14.634578 61.809719 -14.634578 61.809719 -0.17865232 -29.05095 
1.1512 -0.1788051 -29.074427 -14.632969 61.789423 -14.632969 61.789423 -0.1788051 -29.074427 
1.152 -0.1789578 -29.097914 -14.631372 61.769127 -14.631372 61.769127 -0.1789578 -29.097914 
1.1528 -0.1791104 -29.121413 -14.629788 61.748832 -14.629788 61.748832 -0.1791104 -29.121413 
1.1536 -0.1792629 -29.144924 -14.628217 61.728537 -14.628217 61.728537 -0.1792629 -29.144924 
1.1544 -0.17941532 -29.168446 -14.626659 61.708243 -14.626659 61.708243 -0.17941532 -29.168446 
1.1552 -0.17956765 -29.19198 -14.625114 61.687949 -14.625114 61.687949 -0.17956765 -29.19198 
1.156 -0.17971988 -29.215525 -14.623581 61.667656 -14.623581 61.667656 -0.17971988 -29.215525 
1.1568 -0.17987202 -29.239082 -14.622061 61.647364 -14.622061 61.647364 -0.17987202 -29.239082 
1.1576 -0.18002407 -29.262651 -14.620554 61.627072 -14.620554 61.627072 -0.18002407 -29.262651 
1.1584 -0.18017602 -29.286231 -14.61906 61.606781 -14.61906 61.606781 -0.18017602 -29.286231 
1.1592 -0.18032789 -29.309823 -14.617579 61.58649 -14.617579 61.58649 -0.18032789 -29.309823 
1.16 -0.18047966 -29.333427 -14.616111 61.566201 -14.616111 61.566201 -0.18047966 -29.333427 
1.1608 -0.18063135 -29.357042 -14.614655 61.545912 -14.614655 61.545912 -0.18063135 -29.357042 
1.1616 -0.18078294 -29.38067 -14.613213 61.525624 -14.613213 61.525624 -0.18078294 -29.38067 
1.1624 -0.18093444 -29.404309 -14.611783 61.505336 -14.611783 61.505336 -0.18093444 -29.404309 
1.1632 -0.18108585 -29.42796 -14.610367 61.48505 -14.610367 61.48505 -0.18108585 -29.42796 
1.164 -0.18123717 -29.451623 -14.608964 61.464764 -14.608964 61.464764 -0.18123717 -29.451623 
1.1648 -0.1813884 -29.475298 -14.607573 61.444479 -14.607573 61.444479 -0.1813884 -29.475298 
1.1656 -0.18153953 -29.498985 -14.606196 61.424195 -14.606196 61.424195 -0.18153953 -29.498985 
1.1664 -0.18169058 -29.522684 -14.604832 61.403912 -14.604832 61.403912 -0.18169058 -29.522684 
