! AWR Design Environment (17603) Mon Mar 18 17:37:55 2024
! Document = 'RLC Resonator TLIN'
! nPorts: 2, nXvals: 8001

# GHz S DB R 50
!Freq DBS11 AngS11 DBS21 AngS21 DBS12 AngS12 DBS22 AngS22 
4 -302.62571 18 9.6432747e-16 -72 0 -72 -303.86572 17.650124 
4.002 -301.4641 17.964 0 -72.036 0 -72.036 -300.62533 17.354025 
4.004 -305.3744 29.237932 0 -72.072 0 -72.072 -305.70474 15.524111 
4.006 -319.52237 17.892 9.6432747e-16 -72.108 0 -72.108 -318.1227 26.565051 
4.008 -800 0 0 -72.144 9.6432747e-16 -72.144 -313.0712 -162.144 
4.01 -319.51885 17.82 9.6432747e-16 -72.18 9.6432747e-16 -72.18 -312.80791 14.036243 
4.012 -303.4965 -161.56505 9.6432747e-16 -72.216 -9.6432747e-16 -72.216 -302.18983 -162.216 
4.014 -309.85393 27.210322 9.6432747e-16 -72.252 9.6432747e-16 -72.252 -307.68907 19.653824 
4.016 -800 0 0 -72.288 0 -72.288 -800 0 
4.018 -313.49126 180 9.6432747e-16 -72.324 -9.6432747e-16 -72.324 -319.0918 -162.324 
4.02 -313.48953 0 0 -72.36 9.6432747e-16 -72.36 -319.0918 17.64 
4.022 -800 0 0 -72.396 0 -72.396 -800 0 
4.024 -319.50666 17.568 9.6432747e-16 -72.432 0 -72.432 -318.82851 14.036243 
4.026 -325.52554 -90 9.6432747e-16 -72.468 9.6432747e-16 -72.468 -319.0918 -162.468 
4.028 -312.51351 -153.43495 -4.8216373e-16 -72.504 -4.8216373e-16 -72.504 -313.0712 -162.504 
4.03 -309.84008 26.922322 0 -72.54 0 -72.54 -310.75873 16.699244 
4.032 -313.21589 31.460243 1.9286549e-15 -72.576 9.6432747e-16 -72.576 -309.28608 14.036243 
4.034 -318.52897 43.953051 0 -72.612 0 -72.612 -312.80791 14.036243 
4.036 -318.52726 43.917051 0 -72.648 0 -72.648 -315.1124 18.434949 
4.038 -800 0 0 -72.684 0 -72.684 -800 0 
4.04 -305.47035 22.990593 -4.8216373e-16 -72.72 -4.8216373e-16 -72.72 -305.70474 15.524111 
4.042 -309.82985 7.7816778 9.6432747e-16 -72.756 9.6432747e-16 -72.756 -307.86964 15.945396 
4.044 -313.46897 17.208 1.9286549e-15 -72.792 -4.8216373e-16 -72.792 -318.82851 14.036243 
4.046 -800 0 -4.8216373e-16 -72.828 -4.8216373e-16 -72.828 -800 0 
4.048 -313.20231 -165.96376 0 -72.864 0 -72.864 -313.0712 -162.864 
4.05 -325.50512 -90 -4.8216373e-16 -72.9 0 -72.9 -319.0918 17.1 
4.052 -319.48284 17.064 0 -72.936 0 -72.936 -322.1021 45 
4.054 -312.49147 -153.43495 -4.8216373e-16 -72.972 1.9286549e-15 -72.972 -307.0506 -162.972 
4.056 -319.4795 16.992 0 -73.008 9.6432747e-16 -73.008 -312.49977 20.556045 
4.058 -800 0 9.6432747e-16 -73.044 9.6432747e-16 -73.044 -319.0918 -163.044 
4.06 -309.93375 16.92 9.6432747e-16 -73.08 9.6432747e-16 -73.08 -307.86964 15.945396 
4.062 -800 0 0 -73.116 0 -73.116 -800 0 
4.064 -318.50376 43.413051 -9.6432747e-16 -73.152 0 -73.152 -324.1433 26.565051 
4.066 -307.16672 -165.96376 -4.8216373e-16 -73.188 -4.8216373e-16 -73.188 -307.0506 -163.188 
4.068 -319.46956 -90 -4.8216373e-16 -73.224 1.9286549e-15 -73.224 -313.0712 -163.224 
4.07 -313.18403 -165.96376 0 -73.26 0 -73.26 -313.0712 -163.26 
4.072 -307.16179 -165.96376 9.6432747e-16 -73.296 -9.6432747e-16 -73.296 -309.54937 -163.296 
4.074 -319.46464 90 0 -73.332 0 -73.332 -800 0 
4.076 -307.35448 23.757016 -4.8216373e-16 -73.368 0 -73.368 -306.64593 17.354025 
4.078 -313.17749 -165.96376 -4.8216373e-16 -73.404 -4.8216373e-16 -73.404 -313.0712 -163.404 
4.08 -800 0 0 -73.44 0 -73.44 -800 0 
4.082 -319.45813 16.524 0 -73.476 9.6432747e-16 -73.476 -315.1124 18.434949 
4.084 -305.47712 16.488 -9.6432747e-16 -73.512 0 -73.512 -305.56997 18.434949 
4.086 -313.4343 16.452 0 -73.548 -4.8216373e-16 -73.548 -310.75873 16.699244 
4.088 -307.14881 -165.96376 -4.8216373e-16 -73.584 -4.8216373e-16 -73.584 -307.0506 -163.584 
4.09 -313.1678 -165.96376 0 -73.62 0 -73.62 -313.0712 -163.62 
4.092 -313.1662 -165.96376 9.6432747e-16 -73.656 -9.6432747e-16 -73.656 -319.0918 -163.656 
4.094 -313.1646 30.344243 -9.6432747e-16 -73.692 0 -73.692 -310.96266 11.309932 
4.096 -313.163 14.036243 -4.8216373e-16 -73.728 9.6432747e-16 -73.728 -319.0918 16.272 
4.098 -318.4762 42.801051 0 -73.764 0 -73.764 -315.45098 9.4623222 
4.1 -318.47461 42.765051 0 -73.8 9.6432747e-16 -73.8 -315.45098 9.4623222 
4.102 -319.44213 16.164 0 -73.836 0 -73.836 -318.1227 26.565051 
4.104 -313.15666 30.164243 0 -73.872 0 -73.872 -312.49977 20.556045 
4.106 -318.46987 -10.473051 9.6432747e-16 -73.908 0 -73.908 -318.1227 26.565051 
4.108 -319.4374 16.056 0 -73.944 9.6432747e-16 -73.944 -312.80791 14.036243 
4.11 -319.43583 16.02 9.6432747e-16 -73.98 9.6432747e-16 -73.98 -315.1124 18.434949 
4.112 -800 0 1.9286549e-15 -74.016 1.9286549e-15 -74.016 -319.0918 -164.016 
4.114 -313.14882 -165.96376 9.6432747e-16 -74.052 9.6432747e-16 -74.052 -313.0712 -164.052 
4.116 -800 0 0 -74.088 0 -74.088 -800 0 
4.118 -306.81697 -159.44395 9.6432747e-16 -74.124 0 -74.124 -305.1124 -164.124 
4.12 -313.14415 29.876243 9.6432747e-16 -74.16 -4.8216373e-16 -74.16 -313.00386 7.1250163 
4.122 -319.4265 15.804 0 -74.196 0 -74.196 -315.45098 9.4623222 
4.124 -312.43525 -153.43495 9.6432747e-16 -74.232 9.6432747e-16 -74.232 -309.54937 -164.232 
4.126 -319.42342 15.732 9.6432747e-16 -74.268 9.6432747e-16 -74.268 -312.80791 14.036243 
4.128 -800 0 0 -74.304 9.6432747e-16 -74.304 -800 0 
4.13 -307.37915 15.66 9.6432747e-16 -74.34 9.6432747e-16 -74.34 -306.78731 14.036243 
4.132 -313.13493 -165.96376 -9.6432747e-16 -74.376 -9.6432747e-16 -74.376 -800 0 
4.134 -312.4276 -153.43495 0 -74.412 9.6432747e-16 -74.412 -307.0506 -164.412 
4.136 -800 0 0 -74.448 0 -74.448 -800 0 
4.138 -313.13037 -165.96376 0 -74.484 0 -74.484 -313.0712 -164.484 
4.14 -307.37154 15.48 1.9286549e-15 -74.52 -4.8216373e-16 -74.52 -309.28608 14.036243 
4.142 -313.12735 -165.96376 1.9286549e-15 -74.556 -4.8216373e-16 -74.556 -319.0918 -164.556 
4.144 -309.74831 24.870322 -4.8216373e-16 -74.592 -4.8216373e-16 -74.592 -310.96266 11.309932 
4.146 -313.38763 15.372 0 -74.628 0 -74.628 -312.49977 20.556045 
4.148 -309.74531 24.798322 0 -74.664 9.6432747e-16 -74.664 -306.90054 10.619655 
4.15 -800 0 0 -74.7 0 -74.7 -800 0 
4.152 -313.11985 14.036243 -4.8216373e-16 -74.736 9.6432747e-16 -74.736 -319.0918 15.264 
4.154 -309.74084 24.690322 0 -74.772 -4.8216373e-16 -74.772 -310.75873 16.699244 
4.156 -313.38017 180 0 -74.808 0 -74.808 -313.0712 -164.808 
4.158 -307.35809 15.156 0 -74.844 0 -74.844 -306.78731 14.036243 
4.16 -800 0 9.6432747e-16 -74.88 9.6432747e-16 -74.88 -319.0918 -164.88 
4.162 -303.57003 -165.96376 0 -74.916 -4.8216373e-16 -74.916 -303.52877 -164.916 
4.164 -319.39487 15.048 0 -74.952 0 -74.952 -315.45098 9.4623222 
4.166 -319.39341 -90 0 -74.988 0 -74.988 -800 0 
4.168 -313.37135 0 1.9286549e-15 -75.024 1.9286549e-15 -75.024 -319.0918 -165.024 
4.17 -313.1066 -165.96376 9.6432747e-16 -75.06 9.6432747e-16 -75.06 -309.54937 -165.06 
4.172 -800 0 0 -75.096 0 -75.096 -800 0 
4.174 -800 0 0 -75.132 0 -75.132 -312.80791 14.036243 
4.176 -325.40674 90 0 -75.168 -4.8216373e-16 -75.168 -319.0918 14.832 
4.178 -313.1008 -165.96376 9.6432747e-16 -75.204 -4.8216373e-16 -75.204 -319.0918 -165.204 
4.18 -319.38325 14.76 9.6432747e-16 -75.24 0 -75.24 -318.1227 26.565051 
4.182 -318.41272 -11.841051 0 -75.276 0 -75.276 -315.56997 0 
4.184 -313.09649 -165.96376 9.6432747e-16 -75.312 9.6432747e-16 -75.312 -313.0712 -165.312 
4.186 -313.09507 -165.96376 9.6432747e-16 -75.348 -9.6432747e-16 -75.348 -319.0918 -165.348 
4.188 -325.39813 -90 0 -75.384 -4.8216373e-16 -75.384 -800 0 
4.19 -313.35551 14.58 0 -75.42 0 -75.42 -312.80791 14.036243 
4.192 -325.39529 -90 -4.8216373e-16 -75.456 1.9286549e-15 -75.456 -313.0712 -165.456 
4.194 -305.35066 8.7974069 9.6432747e-16 -75.492 9.6432747e-16 -75.492 -304.73813 16.699244 
4.196 -800 0 0 -75.528 0 -75.528 -800 0 
4.198 -313.08657 -165.96376 0 -75.564 0 -75.564 -313.0712 -165.564 
4.2 -325.38966 -90 9.6432747e-16 -75.6 9.6432747e-16 -75.6 -319.0918 -165.6 
4.202 -800 0 0 -75.636 9.6432747e-16 -75.636 -315.45098 9.4623222 
4.204 -313.27833 -172.87498 9.6432747e-16 -75.672 0 -75.672 -319.0918 -165.672 
4.206 -800 0 9.6432747e-16 -75.708 9.6432747e-16 -75.708 -319.0918 -165.708 
4.208 -312.37378 -153.43495 -4.8216373e-16 -75.744 1.9286549e-15 -75.744 -307.0506 -165.744 
4.21 -313.07821 -165.96376 -4.8216373e-16 -75.78 9.6432747e-16 -75.78 -313.0712 -165.78 
4.212 -303.6787 -170.53768 9.6432747e-16 -75.816 -9.6432747e-16 -75.816 -305.1124 -165.816 
4.214 -307.05485 -165.96376 0 -75.852 0 -75.852 -307.0506 -165.852 
4.216 -309.81554 14.112 -4.8216373e-16 -75.888 9.6432747e-16 -75.888 -306.78731 14.036243 
4.218 -309.69518 23.538322 -9.6432747e-16 -75.924 -9.6432747e-16 -75.924 -310.96266 11.309932 
4.22 -313.26729 -172.87498 9.6432747e-16 -75.96 -9.6432747e-16 -75.96 -319.0918 -165.96 
4.222 -331.39506 90 0 -75.996 -9.6432747e-16 -75.996 -319.0918 14.004 
4.224 -309.81008 13.968 9.6432747e-16 -76.032 9.6432747e-16 -76.032 -309.28608 14.036243 
4.226 -319.35115 13.932 9.6432747e-16 -76.068 9.6432747e-16 -76.068 -315.30668 14.036243 
4.228 -325.3704 -90 0 -76.104 0 -76.104 -800 0 
4.23 -800 0 9.6432747e-16 -76.14 0 -76.14 -319.0918 -166.14 
4.232 -307.04261 -165.96376 -9.6432747e-16 -76.176 9.6432747e-16 -76.176 -307.0506 -166.176 
4.234 -313.06187 -165.96376 0 -76.212 0 -76.212 -313.0712 -166.212 
4.236 -325.36503 90 -4.8216373e-16 -76.248 -4.8216373e-16 -76.248 -800 0 
4.238 -313.25516 20.841016 0 -76.284 0 -76.284 -312.92114 10.619655 
4.24 -331.38296 90 -4.8216373e-16 -76.32 -9.6432747e-16 -76.32 -319.0918 13.68 
4.242 -331.38163 -76.356 0 -76.356 9.6432747e-16 -76.356 -315.1124 18.434949 
4.244 -313.25118 -172.87498 9.6432747e-16 -76.392 0 -76.392 -319.0918 -166.392 
4.246 -313.24986 -172.87498 -4.8216373e-16 -76.428 -4.8216373e-16 -76.428 -800 0 
4.248 -313.31588 180 9.6432747e-16 -76.464 -4.8216373e-16 -76.464 -319.0918 -166.464 
4.25 -307.14391 -169.38034 9.6432747e-16 -76.5 -4.8216373e-16 -76.5 -309.54937 -166.5 
4.252 -313.04997 -165.96376 0 -76.536 0 -76.536 -313.0712 -166.536 
4.254 -306.71992 -159.44395 9.6432747e-16 -76.572 9.6432747e-16 -76.572 -305.1124 -166.572 
4.256 -307.13999 -169.38034 0 -76.608 0 -76.608 -307.0506 -166.608 
4.258 -309.75747 18.119642 0 -76.644 0 -76.644 -310.86971 14.036243 
4.26 -800 0 0 -76.68 0 -76.68 -800 0 
4.262 -325.34797 -90 -4.8216373e-16 -76.716 -1.4464912e-15 -76.716 -319.0918 13.284 
4.264 -312.73405 -159.44395 9.6432747e-16 -76.752 9.6432747e-16 -76.752 -309.54937 -166.752 
4.266 -306.71217 -159.44395 9.6432747e-16 -76.788 9.6432747e-16 -76.788 -305.1124 -166.788 
4.268 -307.01903 -165.96376 0 -76.824 0 -76.824 -307.0506 -166.824 
4.27 -331.36344 90 0 -76.86 0 -76.86 -800 0 
4.272 -307.26284 9.5276656 0 -76.896 0 -76.896 -306.8476 12.339087 
4.274 -319.3197 13.068 9.6432747e-16 -76.932 9.6432747e-16 -76.932 -318.52037 20.556045 
4.276 -313.03455 -165.96376 -4.8216373e-16 -76.968 -4.8216373e-16 -76.968 -313.0712 -166.968 
4.278 -313.22924 7.1250163 0 -77.004 9.6432747e-16 -77.004 -319.0918 12.996 
4.28 -303.6339 -170.53768 0 -77.04 -9.6432747e-16 -77.04 -303.52877 -167.04 
4.282 -309.77224 12.924 0 -77.076 9.6432747e-16 -77.076 -307.94715 14.036243 
4.284 -307.00893 -165.96376 9.6432747e-16 -77.112 -4.8216373e-16 -77.112 -309.54937 -167.112 
4.286 -313.02828 -165.96376 9.6432747e-16 -77.148 9.6432747e-16 -77.148 -309.54937 -167.148 
4.288 -307.26972 12.816 -4.8216373e-16 -77.184 0 -77.184 -305.76426 14.036243 
4.29 -325.33028 -90 9.6432747e-16 -77.22 0 -77.22 -800 0 
4.292 -307.25032 9.1676656 0 -77.256 0 -77.256 -306.78731 14.036243 
4.294 -306.69459 -159.44395 9.6432747e-16 -77.292 9.6432747e-16 -77.292 -305.1124 -167.292 
4.296 -313.21805 -172.87498 -4.8216373e-16 -77.328 -4.8216373e-16 -77.328 -313.0712 -167.328 
4.298 -307.1135 -169.38034 9.6432747e-16 -77.364 9.6432747e-16 -77.364 -305.1124 -167.364 
4.3 -313.01965 -165.96376 0 -77.4 0 -77.4 -313.0712 -167.4 
4.302 -313.28172 12.564 9.6432747e-16 -77.436 9.6432747e-16 -77.436 -312.92114 10.619655 
4.304 -312.70908 -159.44395 0 -77.472 -4.8216373e-16 -77.472 -313.0712 -167.472 
4.306 -303.72934 14.877944 0 -77.508 -9.6432747e-16 -77.508 -305.81821 12.528808 
4.308 -313.21076 -172.87498 9.6432747e-16 -77.544 -9.6432747e-16 -77.544 -319.0918 -167.544 
4.31 -319.0342 -1.6162435 0 -77.58 0 -77.58 -315.45098 9.4623222 
4.312 -313.20835 -172.87498 -4.8216373e-16 -77.616 -4.8216373e-16 -77.616 -313.0712 -167.616 
4.314 -313.20715 -172.87498 -4.8216373e-16 -77.652 -4.8216373e-16 -77.652 -800 0 
4.316 -313.20596 -172.87498 9.6432747e-16 -77.688 -9.6432747e-16 -77.688 -319.0918 -167.688 
4.318 -313.27211 12.276 -4.8216373e-16 -77.724 0 -77.724 -312.80791 14.036243 
4.32 -309.71904 17.003642 -4.8216373e-16 -77.76 -4.8216373e-16 -77.76 -310.86971 14.036243 
4.322 -800 0 0 -77.796 0 -77.796 -800 0 
4.324 -305.29892 15.030405 -4.8216373e-16 -77.832 -4.8216373e-16 -77.832 -305.86637 11.003541 
4.326 -309.74556 12.132 0 -77.868 -4.8216373e-16 -77.868 -311.03636 8.5307656 
4.328 -319.28681 12.096 0 -77.904 9.6432747e-16 -77.904 -315.30668 14.036243 
4.33 -313.26505 12.06 0 -77.94 9.6432747e-16 -77.94 -307.94715 14.036243 
4.332 -800 0 0 -77.976 -9.6432747e-16 -77.976 -319.0918 12.024 
4.334 -331.32452 90 0 -78.012 0 -78.012 -800 0 
4.336 -319.28216 11.952 9.6432747e-16 -78.048 0 -78.048 -318.82851 14.036243 
4.338 -313.26041 180 -4.8216373e-16 -78.084 -4.8216373e-16 -78.084 -313.0712 -168.084 
4.34 -307.22173 15.456334 1.9286549e-15 -78.12 0 -78.12 -309.36485 11.768289 
4.342 -307.08746 -169.38034 0 -78.156 0 -78.156 -307.0506 -168.156 
4.344 -309.70509 7.0443583 9.6432747e-16 -78.192 9.6432747e-16 -78.192 -308.01546 12.094757 
4.346 -309.73401 11.772 -4.8216373e-16 -78.228 9.6432747e-16 -78.228 -307.94715 14.036243 
4.348 -331.3165 -90 9.6432747e-16 -78.264 9.6432747e-16 -78.264 -319.0918 -168.264 
4.35 -309.70168 16.463642 -4.8216373e-16 -78.3 9.6432747e-16 -78.3 -306.90054 10.619655 
4.352 -313.25244 11.664 0 -78.336 0 -78.336 -312.80791 14.036243 
4.354 -313.18398 -172.87498 -9.6432747e-16 -78.372 -9.6432747e-16 -78.372 -313.0712 -168.372 
4.356 -325.29139 -90 9.6432747e-16 -78.408 9.6432747e-16 -78.408 -319.0918 -168.408 
4.358 -312.98578 -165.96376 9.6432747e-16 -78.444 -1.4464912e-15 -78.444 -319.0918 -168.444 
4.36 -307.0773 -169.38034 0 -78.48 0 -78.48 -307.0506 -168.48 
4.362 -312.67542 -159.44395 0 -78.516 -4.8216373e-16 -78.516 -313.0712 -168.516 
4.364 -319.26634 11.448 9.6432747e-16 -78.552 9.6432747e-16 -78.552 -315.30668 14.036243 
4.366 -313.1773 7.1250163 -4.8216373e-16 -78.588 0 -78.588 -319.0918 11.412 
4.368 -313.1762 -172.87498 9.6432747e-16 -78.624 9.6432747e-16 -78.624 -319.0918 -168.624 
4.37 -307.15451 -172.87498 0 -78.66 9.6432747e-16 -78.66 -307.0506 -168.66 
4.372 -309.71952 11.304 9.6432747e-16 -78.696 0 -78.696 -309.43038 9.4623222 
4.374 -306.815 -162.64598 9.6432747e-16 -78.732 9.6432747e-16 -78.732 -305.1124 -168.732 
4.376 -313.17184 -172.87498 9.6432747e-16 -78.768 -9.6432747e-16 -78.768 -319.0918 -168.768 
4.378 -312.9748 -165.96376 9.6432747e-16 -78.804 9.6432747e-16 -78.804 -309.54937 -168.804 
4.38 -325.27821 -90 9.6432747e-16 -78.84 9.6432747e-16 -78.84 -800 0 
4.382 -800 0 1.9286549e-15 -78.876 1.9286549e-15 -78.876 -319.0918 -168.876 
4.384 -313.23487 180 0 -78.912 0 -78.912 -313.0712 -168.912 
4.386 -305.275 11.052 9.6432747e-16 -78.948 9.6432747e-16 -78.948 -304.10654 11.560131 
4.388 -312.96945 -165.96376 0 -78.984 0 -78.984 -313.0712 -168.984 
4.39 -307.14374 -172.87498 9.6432747e-16 -79.02 -9.6432747e-16 -79.02 -309.54937 -169.02 
4.392 -800 0 0 -79.056 0 -79.056 -800 0 
4.394 -309.70774 10.908 -4.8216373e-16 -79.092 -4.8216373e-16 -79.092 -310.96266 11.309932 
4.396 -307.05786 -169.38034 1.9286549e-15 -79.128 -4.8216373e-16 -79.128 -309.54937 -169.128 
4.398 -312.96418 -165.96376 1.9286549e-15 -79.164 1.9286549e-15 -79.164 -309.54937 -169.164 
4.4 -312.96314 -165.96376 0 -79.2 0 -79.2 -313.0712 -169.2 
4.402 -305.25574 13.626405 9.6432747e-16 -79.236 9.6432747e-16 -79.236 -304.17599 9.0394828 
4.404 -331.28615 90 0 -79.272 -4.8216373e-16 -79.272 -319.0918 10.728 
4.406 -800 0 -4.8216373e-16 -79.308 -4.8216373e-16 -79.308 -800 0 
4.408 -313.15496 -172.87498 -4.8216373e-16 -79.344 -4.8216373e-16 -79.344 -313.0712 -169.344 
4.41 -800 0 0 -79.38 0 -79.38 -800 0 
4.412 -309.66836 15.347642 9.6432747e-16 -79.416 0 -79.416 -309.36485 11.768289 
4.414 -313.15189 17.673016 0 -79.452 -4.8216373e-16 -79.452 -312.92114 10.619655 
4.416 -309.57739 19.974322 -4.8216373e-16 -79.488 -4.8216373e-16 -79.488 -310.86971 14.036243 
4.418 -318.97451 24.512243 0 -79.524 9.6432747e-16 -79.524 -312.92114 10.619655 
4.42 -307.04553 -169.38034 9.6432747e-16 -79.56 0 -79.56 -305.1124 -169.56 
4.422 -331.27699 -90 -4.8216373e-16 -79.596 -4.8216373e-16 -79.596 -800 0 
4.424 -325.25539 -90 0 -79.632 0 -79.632 -800 0 
4.426 -309.69137 10.332 0 -79.668 0 -79.668 -309.43038 9.4623222 
4.428 -313.14486 -172.87498 9.6432747e-16 -79.704 9.6432747e-16 -79.704 -309.54937 -169.704 
4.43 -313.21121 10.26 -9.6432747e-16 -79.74 0 -79.74 -310.96266 11.309932 
4.432 -305.25142 10.224 0 -79.776 0 -79.776 -304.1433 10.304846 
4.434 -318.96655 24.224243 9.6432747e-16 -79.812 9.6432747e-16 -79.812 -315.53992 4.7636417 
4.436 -800 0 0 -79.848 9.6432747e-16 -79.848 -315.45098 9.4623222 
4.438 -309.68546 10.116 9.6432747e-16 -79.884 0 -79.884 -309.36485 11.768289 
4.44 -800 0 9.6432747e-16 -79.92 9.6432747e-16 -79.92 -319.0918 -169.92 
4.442 -318.96266 24.080243 0 -79.956 0 -79.956 -312.92114 10.619655 
4.444 -306.92049 -165.96376 9.6432747e-16 -79.992 -1.4464912e-15 -79.992 -309.54937 -169.992 
4.446 -307.18282 9.972 9.6432747e-16 -80.028 -4.8216373e-16 -80.028 -309.36485 11.768289 
4.448 -313.13513 -7.1250163 0 -80.064 9.6432747e-16 -80.064 -319.0918 9.936 
4.45 -307.16398 13.476334 1.9286549e-15 -80.1 0 -80.1 -309.36485 11.768289 
4.452 -307.11262 -172.87498 9.6432747e-16 -80.136 -4.8216373e-16 -80.136 -307.0506 -170.136 
4.454 -312.93632 -165.96376 9.6432747e-16 -80.172 9.6432747e-16 -80.172 -309.54937 -170.172 
4.456 -307.11073 -172.87498 9.6432747e-16 -80.208 -9.6432747e-16 -80.208 -309.54937 -170.208 
4.458 -303.53631 -170.53768 9.6432747e-16 -80.244 -9.6432747e-16 -80.244 -305.1124 -170.244 
4.46 -331.25859 -90 9.6432747e-16 -80.28 9.6432747e-16 -80.28 -319.0918 -170.28 
4.462 -331.25766 -90 9.6432747e-16 -80.316 9.6432747e-16 -80.316 -319.0918 -170.316 
4.464 -331.25673 99.648 0 -80.352 9.6432747e-16 -80.352 -315.45098 9.4623222 
4.466 -312.62257 -159.44395 0 -80.388 0 -80.388 -313.0712 -170.388 
4.468 -325.23428 90 0 -80.424 -9.6432747e-16 -80.424 -319.0918 9.576 
4.47 -307.10422 -172.87498 -4.8216373e-16 -80.46 -4.8216373e-16 -80.46 -307.0506 -170.46 
4.472 -313.19124 180 -4.8216373e-16 -80.496 -4.8216373e-16 -80.496 -313.0712 -170.496 
4.474 -800 0 9.6432747e-16 -80.532 9.6432747e-16 -80.532 -319.0918 -170.532 
4.476 -307.01876 -169.38034 0 -80.568 0 -80.568 -305.1124 -170.568 
4.478 -800 0 9.6432747e-16 -80.604 9.6432747e-16 -80.604 -319.0918 -170.604 
4.48 -313.12028 -172.87498 9.6432747e-16 -80.64 -1.4464912e-15 -80.64 -319.0918 -170.64 
4.482 -307.01606 -169.38034 9.6432747e-16 -80.676 9.6432747e-16 -80.676 -305.1124 -170.676 
4.484 -313.11849 16.413016 1.9286549e-15 -80.712 0 -80.712 -309.48204 7.1250163 
4.486 -313.1176 7.1250163 -4.8216373e-16 -80.748 9.6432747e-16 -80.748 -319.0918 9.252 
4.488 -301.03809 -171.11934 0 -80.784 -4.8216373e-16 -80.784 -301.03 -170.784 
4.49 -319.20376 9.18 0 -80.82 0 -80.82 -319.02446 7.1250163 
4.492 -800 0 9.6432747e-16 -80.856 9.6432747e-16 -80.856 -319.0918 -170.856 
4.494 -309.65958 9.108 9.6432747e-16 -80.892 0 -80.892 -309.48204 7.1250163 
4.496 -313.18053 9.072 9.6432747e-16 -80.928 0 -80.928 -315.45098 9.4623222 
4.498 -319.20026 9.036 -4.8216373e-16 -80.964 9.6432747e-16 -80.964 -313.00386 7.1250163 
4.5 -319.1994 9 9.6432747e-16 -81 -4.8216373e-16 -81 -318.82851 14.036243 
4.502 -313.17793 8.964 0 -81.036 0 -81.036 -313.00386 7.1250163 
4.504 -313.10974 -172.87498 9.6432747e-16 -81.072 9.6432747e-16 -81.072 -309.54937 -171.072 
4.506 -800 0 -4.8216373e-16 -81.108 -4.8216373e-16 -81.108 -800 0 
4.508 -307.13784 -176.42367 9.6432747e-16 -81.144 0 -81.144 -309.54937 -171.144 
4.51 -313.17452 8.82 -4.8216373e-16 -81.18 -4.8216373e-16 -81.18 -315.45098 9.4623222 
